
T0850 000:323 SEGGER J-Link V4.36l Log File (0002ms, 0311ms total)
T0850 000:323 DLL Compiled: Dec  2 2011 18:52:36 (0002ms, 0311ms total)
T0850 000:323 Logging started @ 2012-06-01 21:13 (0003ms, 0311ms total)
T0850 000:327 JLINK_SetWarnOutHandler(...) (0000ms, 0315ms total)
T0850 000:328 JLINK_OpenEx(...)
Firmware: J-Link ARM V8 compiled Sep 22 2011 16:23:23
Hardware: V8.00
S/N: 805306163
Feature(s): RDI,FlashDL,FlashBP,JFlash,GDBFull  returns O.K. (0081ms, 0316ms total)
T0850 000:420 JLINK_SetErrorOutHandler(...) (0000ms, 0399ms total)
T0850 000:423 JLINK_ExecCommand("Device = STM32F407VG", ...)
                JLINK_ExecCommand("map ram 0x20000000 - 0x2001FFFF", ...)  returns 0x00 (0000ms, 0001ms total)
                JLINK_AddMirrorAreaEx(Addr = 0x00000000, Size = 0x00000000) (0001ms, 0001ms total)
              Device "STM32F407VG" selected (1024 KB flash, 128 KB RAM).  returns 0x00 (0005ms, 0400ms total)
T0850 000:436 JLINK_ExecCommand("ProjectFile = "Y:\Code\STM32F4x7_ETH_LwIP_V1.0.0\Project\Standalone\httpserver\MDK-ARM\JLinkSettings.ini"", ...)  returns 0x00 (0006ms, 0406ms total)
T0850 000:445 JLINK_ExecCommand("DisableConnectionTimeout", ...)  returns 0x00 (0001ms, 0414ms total)
T0850 000:447 JLINK_TIF_Select(JLINKARM_TIF_JTAG)  returns 0x00 (0002ms, 0415ms total)
T0850 000:449 JLINK_SetSpeed(2000) (0006ms, 0417ms total)
T0850 000:455 JLINK_GetHardwareVersion()  returns 0x13880 (0002ms, 0423ms total)
T0850 000:457 JLINK_GetDLLVersion()  returns 43612 (0001ms, 0425ms total)
T0850 000:459 JLINK_GetFirmwareString(...) (0001ms, 0427ms total)
T0850 000:460 JLINK_GetDLLVersion()  returns 43612 (0002ms, 0428ms total)
T0850 000:463 JLINK_GetCompileDateTime() (0002ms, 0431ms total)
T0850 000:466 JLINK_GetFirmwareString(...) (0001ms, 0434ms total)
T0850 000:467 JLINK_GetHardwareVersion()  returns 0x13880 (0002ms, 0435ms total)
T0850 000:469 JLINK_GetIdData(...) >0x2F8 JTAG>TotalIRLen = 9, IRPrint = 0x0011 >0x30 JTAG> >0x210 JTAG> >0x80 JTAG> >0x40 JTAG> >0x40 JTAG> >0x50 JTAG> >0x40 JTAG> >0x40 JTAG> >0x40 JTAG> >0x50 JTAG> >0x40 JTAG> >0x50 JTAG> >0x40 JTAG> >0x40 JTAG> >0x40 JTAG> >0x30 JTAG> >0x40 JTAG> >0x50 JTAG> >0x40 JTAG> >0x38 JTAG> >0x80 JTAG> >0x40 JTAG> >0x40 JTAG> >0x50 JTAG> >0x40 JTAG> >0x40 JTAG> >0x40 JTAG> >0x50 JTAG> >0x40 JTAG> >0x40 JTAG> >0x30 JTAG> >0x40 JTAG> >0x40 JTAG> >0x40 JTAG> >0x40 JTAG>
 >0x40 JTAG> >0x50 JTAG> >0x40 JTAG> >0x80 JTAG> >0x40 JTAG> >0x30 JTAG> >0x40 JTAG> >0x40 JTAG> >0x40 JTAG> >0x40 JTAG> >0x40 JTAG> >0x50 JTAG> >0x40 JTAG> >0x80 JTAG> >0x40 JTAG> >0x30 JTAG> >0x40 JTAG> >0x50 JTAG> >0x40 JTAG> >0x40 JTAG> >0x40 JTAG> >0x30 JTAG> >0x40 JTAG> >0x50 JTAG> >0x40 JTAG>Found Cortex-M4 r0p1, Little endian. >0x50 JTAG> >0x50 JTAG> >0x40 JTAG> >0x40 JTAG> >0x30 JTAG> >0x30 JTAG> >0x50 JTAG> >0x40 JTAG> >0x80 JTAG> >0x40 JTAG> >0x30 JTAG> >0x40 JTAG> >0x50 JTAG> >0x40 JTAG>
 >0x40 JTAG> >0x40 JTAG> >0x30 JTAG> >0x40 JTAG> >0x50 JTAG> >0x40 JTAG>TPIU fitted. >0x40 JTAG> >0x40 JTAG> >0x30 JTAG> >0x40 JTAG> >0x50 JTAG> >0x40 JTAG>ETM fitted. >0x40 JTAG> >0x40 JTAG> >0x30 JTAG> >0x40 JTAG> >0x50 JTAG> >0x40 JTAG> >0x40 JTAG> >0x40 JTAG> >0x30 JTAG> >0x40 JTAG> >0x50 JTAG> >0x40 JTAG>  FPUnit: 6 code (BP) slots and 2 literal slots >0x40 JTAG> >0x40 JTAG> >0x30 JTAG> >0x40 JTAG> >0x50 JTAG> >0x40 JTAG> >0x40 JTAG> >0x40 JTAG> >0x30 JTAG> >0x40 JTAG> >0x50 JTAG> >0x40 JTAG>
 ScanLen=9 NumDevices=2 aId[0]=0x4BA00477 aIrRead[0]=0 aScanLen[0]=0 aScanRead[0]=0 (0270ms, 0437ms total)
T0850 000:739 JLINK_JTAG_GetDeviceID(DeviceIndex = 0)  returns 0x4BA00477 (0002ms, 0707ms total)
T0850 000:742 JLINK_JTAG_GetDeviceInfo(DeviceIndex = 0)  returns 0x00 (0002ms, 0710ms total)
T0850 000:744 JLINK_JTAG_GetDeviceID(DeviceIndex = 1)  returns 0x6413041 (0002ms, 0712ms total)
T0850 000:747 JLINK_JTAG_GetDeviceInfo(DeviceIndex = 1)  returns 0x00 (0002ms, 0715ms total)
T0850 000:750 JLINK_GetDebugInfo(0x100) -- Value=0xE00FF003  returns 0x00 (0002ms, 0718ms total)
T0850 000:753 JLINK_ReadMem (0xE00FFFF0, 0x0010 Bytes, ...) -- CPU is running -- CPU_ReadMem(16 bytes @ 0xE00FFFF0) -- Data:  0D 00 00 00 10 00 00 00 05 00 00 00 B1 00 00 00  returns 0x00 (0010ms, 0721ms total)
T0850 000:764 JLINK_ReadMem (0xE00FFFD0, 0x0020 Bytes, ...) -- CPU is running -- CPU_ReadMem(32 bytes @ 0xE00FFFD0) -- Data:  00 00 00 00 00 00 00 00 00 00 00 00 00 00 00 00 ...  returns 0x00 (0006ms, 0732ms total)
T0850 000:770 JLINK_ReadMem (0xE00FF000, 0x0018 Bytes, ...) -- CPU is running -- CPU_ReadMem(24 bytes @ 0xE00FF000) -- Data:  03 F0 F0 FF 03 20 F0 FF 03 30 F0 FF 03 10 F0 FF ...  returns 0x00 (0004ms, 0738ms total)
T0850 000:774 JLINK_ReadMemU32(0xE000ED00, 0x0001 Items, ...) -- CPU is running -- CPU_ReadMem(4 bytes @ 0xE000ED00) -- Data:  41 C2 0F 41  returns 0x01 (0003ms, 0742ms total)
T0850 000:778 JLINK_ReadMemU32(0xE000EF40, 0x0001 Items, ...) -- CPU is running -- CPU_ReadMem(4 bytes @ 0xE000EF40) -- Data:  21 00 11 10  returns 0x01 (0006ms, 0746ms total)
T0850 000:784 JLINK_ReadMemU32(0xE000EF44, 0x0001 Items, ...) -- CPU is running -- CPU_ReadMem(4 bytes @ 0xE000EF44) -- Data:  11 00 00 11  returns 0x01 (0004ms, 0752ms total)
T0850 000:788 JLINK_SetResetType(JLINKARM_RESET_TYPE_NORMAL)  returns JLINKARM_RESET_TYPE_NORMAL (0001ms, 0756ms total)
T0850 000:790 JLINK_Reset() >0x308 JTAG>TotalIRLen = 9, IRPrint = 0x0011 >0x30 JTAG> >0x210 JTAG> >0x80 JTAG> >0x40 JTAG> >0x40 JTAG> >0x50 JTAG> >0x40 JTAG> >0x40 JTAG> >0x40 JTAG> >0x50 JTAG> >0x40 JTAG> >0x50 JTAG> >0x40 JTAG> >0x40 JTAG> >0x40 JTAG> >0x30 JTAG> >0x40 JTAG> >0x50 JTAG> >0x40 JTAG> >0x38 JTAG> >0x80 JTAG> >0x40 JTAG> >0x40 JTAG> >0x50 JTAG> >0x40 JTAG> >0x40 JTAG> >0x40 JTAG> >0x50 JTAG> >0x40 JTAG> >0x40 JTAG> >0x30 JTAG> >0x40 JTAG> >0x40 JTAG> >0x40 JTAG> >0x40 JTAG> >0x40 JTAG>
 >0x50 JTAG> >0x40 JTAG> >0x80 JTAG> >0x40 JTAG> >0x30 JTAG> >0x40 JTAG> >0x40 JTAG> >0x40 JTAG> >0x40 JTAG> >0x40 JTAG> >0x50 JTAG> >0x40 JTAG> >0x80 JTAG> >0x40 JTAG> >0x30 JTAG> >0x40 JTAG> >0x50 JTAG> >0x40 JTAG> >0x40 JTAG> >0x40 JTAG> >0x30 JTAG> >0x40 JTAG> >0x50 JTAG> >0x40 JTAG>Found Cortex-M4 r0p1, Little endian. >0x50 JTAG> >0x50 JTAG> >0x40 JTAG> >0x40 JTAG> >0x30 JTAG> >0x30 JTAG> >0x50 JTAG> >0x40 JTAG> >0x80 JTAG> >0x40 JTAG> >0x30 JTAG> >0x40 JTAG> >0x50 JTAG> >0x40 JTAG> >0x40 JTAG>
 >0x40 JTAG> >0x30 JTAG> >0x40 JTAG> >0x50 JTAG> >0x40 JTAG>TPIU fitted. >0x40 JTAG> >0x40 JTAG> >0x30 JTAG> >0x40 JTAG> >0x50 JTAG> >0x40 JTAG>ETM fitted. >0x40 JTAG> >0x40 JTAG> >0x30 JTAG> >0x40 JTAG> >0x50 JTAG> >0x40 JTAG> >0x40 JTAG> >0x40 JTAG> >0x30 JTAG> >0x40 JTAG> >0x50 JTAG> >0x40 JTAG>  FPUnit: 6 code (BP) slots and 2 literal slots >0x40 JTAG> >0x40 JTAG> >0x30 JTAG> >0x40 JTAG> >0x50 JTAG> >0x40 JTAG> >0x40 JTAG> >0x40 JTAG> >0x30 JTAG> >0x40 JTAG> >0x50 JTAG> >0x40 JTAG> >0x48 JTAG>
 >0x80 JTAG> >0x40 JTAG> >0x40 JTAG> >0x50 JTAG> >0x40 JTAG> >0x40 JTAG> >0x40 JTAG> >0x50 JTAG> >0x40 JTAG> >0x40 JTAG> >0x30 JTAG> >0x40 JTAG> >0x40 JTAG> >0x40 JTAG> >0x40 JTAG> >0x40 JTAG> >0x50 JTAG> >0x40 JTAG> >0x80 JTAG> >0x40 JTAG> >0x30 JTAG> >0x40 JTAG> >0x40 JTAG> >0x40 JTAG> >0x40 JTAG> >0x40 JTAG> >0x50 JTAG> >0x40 JTAG> >0x80 JTAG> >0x40 JTAG> >0x30 JTAG> >0x40 JTAG> >0x50 JTAG> >0x40 JTAG> >0x40 JTAG> >0x40 JTAG> >0x30 JTAG> >0x40 JTAG> >0x50 JTAG> >0x40 JTAG>
Found Cortex-M4 r0p1, Little endian. >0x50 JTAG> >0x50 JTAG> >0x40 JTAG> >0x40 JTAG> >0x30 JTAG> >0x30 JTAG> >0x50 JTAG> >0x40 JTAG> >0x80 JTAG> >0x40 JTAG> >0x30 JTAG> >0x40 JTAG> >0x50 JTAG> >0x40 JTAG> >0x40 JTAG> >0x40 JTAG> >0x30 JTAG> >0x40 JTAG> >0x50 JTAG> >0x40 JTAG>TPIU fitted. >0x40 JTAG> >0x40 JTAG> >0x30 JTAG> >0x40 JTAG> >0x50 JTAG> >0x40 JTAG>ETM fitted. >0x40 JTAG> >0x40 JTAG> >0x30 JTAG> >0x40 JTAG> >0x50 JTAG> >0x40 JTAG> >0x40 JTAG> >0x40 JTAG> >0x30 JTAG> >0x40 JTAG> >0x50 JTAG>
 >0x40 JTAG>  FPUnit: 6 code (BP) slots and 2 literal slots >0x40 JTAG> >0x40 JTAG> >0x30 JTAG> >0x40 JTAG> >0x50 JTAG> >0x40 JTAG> >0x40 JTAG> >0x40 JTAG> >0x30 JTAG> >0x40 JTAG> >0x50 JTAG> >0x40 JTAG> -- CPU is running -- CPU_WriteMem(4 bytes @ 0xE000EDF0) -- CPU is running -- CPU_WriteMem(4 bytes @ 0xE000EDFC) -- CPU is running -- CPU_WriteMem(4 bytes @ 0xE000ED0C) -- CPU is running -- CPU_ReadMem(4 bytes @ 0xE000EDF0) -- CPU is running -- CPU_ReadMem(4 bytes @ 0xE000EDF0) -- CPU is running
 -- CPU_WriteMem(4 bytes @ 0xE000EDF0) -- CPU is running -- CPU_WriteMem(4 bytes @ 0xE000EDFC) -- CPU is running -- CPU_ReadMem(4 bytes @ 0xE000EDF0) >0x90 JTAG> >0x40 JTAG> >0x30 JTAG> >0x40 JTAG> >0x50 JTAG> >0x40 JTAG> -- CPU_WriteMem(4 bytes @ 0xE000EDFC) -- CPU_WriteMem(4 bytes @ 0xE0001028) -- CPU_WriteMem(4 bytes @ 0xE0001038) -- CPU_WriteMem(4 bytes @ 0xE0001048) -- CPU_WriteMem(4 bytes @ 0xE0001058) (0555ms, 0758ms total)
T0850 001:348 JLINK_ReadReg(R15)  returns 0x0800019C (0006ms, 1313ms total)
T0850 001:355 JLINK_ReadReg(XPSR)  returns 0x01000000 (0002ms, 1320ms total)
T0850 001:357 JLINK_Halt()  returns 0x00 (0002ms, 1322ms total)
T0850 001:360 JLINK_IsHalted()  returns TRUE (0002ms, 1325ms total)
T0850 001:363 JLINK_ReadMemU32(0xE000EDF0, 0x0001 Items, ...) -- CPU_ReadMem(4 bytes @ 0xE000EDF0) -- Data:  03 00 03 00  returns 0x01 (0005ms, 1325ms total)
T0850 001:368 JLINK_WriteU32(0xE000EDF0, 0xA05F0003) -- CPU_WriteMem(4 bytes @ 0xE000EDF0)  returns 0x00 (0006ms, 1330ms total)
T0850 001:374 JLINK_WriteU32(0xE000EDFC, 0x01000000) -- CPU_WriteMem(4 bytes @ 0xE000EDFC)  returns 0x00 (0003ms, 1336ms total)
T0850 001:378 JLINK_GetHWStatus(...)  returns 0x00 (0003ms, 1340ms total)
T0850 001:382 JLINK_GetNumBPUnits(Type = 0xFFFFFF00)  returns 0x06 (0003ms, 1344ms total)
T0850 001:385 JLINK_GetNumBPUnits(Type = 0xF0)  returns 0x2000 (0002ms, 1347ms total)
T0850 001:388 JLINK_GetNumWPUnits()  returns 0x04 (0002ms, 1350ms total)
T0850 001:391 JLINK_GetSpeed()  returns 0x7D0 (0002ms, 1353ms total)
T0850 001:393 JLINK_ReadMemU32(0xE000E004, 0x0001 Items, ...) -- CPU_ReadMem(4 bytes @ 0xE000E004) -- Data:  02 00 00 00  returns 0x01 (0003ms, 1355ms total)
T0850 001:397 JLINK_ReadMemU32(0xE000E004, 0x0001 Items, ...) -- CPU_ReadMem(4 bytes @ 0xE000E004) -- Data:  02 00 00 00  returns 0x01 (0002ms, 1359ms total)
T0850 001:400 JLINK_WriteMem(0xE0001000, 0x001C Bytes, ...) -- Data:  01 00 00 00 00 00 00 00 00 00 00 00 00 00 00 00 ... -- CPU_WriteMem(28 bytes @ 0xE0001000)  returns 0x1C (0002ms, 1362ms total)
T0850 001:402 JLINK_ReadMem (0xE0001000, 0x001C Bytes, ...) -- CPU_ReadMem(28 bytes @ 0xE0001000) -- Data:  01 00 00 40 00 00 00 00 00 00 00 00 00 00 00 00 ...  returns 0x00 (0004ms, 1364ms total)
T0850 001:407 JLINK_ReadReg(R15)  returns 0x0800019C (0000ms, 1369ms total)
T0850 001:408 JLINK_ReadReg(XPSR)  returns 0x01000000 (0001ms, 1370ms total)
T0850 001:632 JLINK_SetResetType(JLINKARM_RESET_TYPE_NORMAL)  returns JLINKARM_RESET_TYPE_NORMAL (0002ms, 1371ms total)
T0850 001:635 JLINK_Reset() >0x2F8 JTAG>TotalIRLen = 9, IRPrint = 0x0011 >0x30 JTAG> >0x210 JTAG> >0x80 JTAG> >0x40 JTAG> >0x40 JTAG> >0x50 JTAG> >0x40 JTAG> >0x40 JTAG> >0x40 JTAG> >0x50 JTAG> >0x40 JTAG> >0x50 JTAG> >0x40 JTAG> >0x40 JTAG> >0x40 JTAG> >0x30 JTAG> >0x40 JTAG> >0x50 JTAG> >0x40 JTAG> >0x38 JTAG> >0x80 JTAG> >0x40 JTAG> >0x40 JTAG> >0x50 JTAG> >0x40 JTAG> >0x40 JTAG> >0x40 JTAG> >0x50 JTAG> >0x40 JTAG> >0x40 JTAG> >0x30 JTAG> >0x40 JTAG> >0x40 JTAG> >0x40 JTAG> >0x40 JTAG> >0x40 JTAG>
 >0x50 JTAG> >0x40 JTAG> >0x80 JTAG> >0x40 JTAG> >0x30 JTAG> >0x40 JTAG> >0x40 JTAG> >0x40 JTAG> >0x40 JTAG> >0x40 JTAG> >0x50 JTAG> >0x40 JTAG> >0x80 JTAG> >0x40 JTAG> >0x30 JTAG> >0x40 JTAG> >0x50 JTAG> >0x40 JTAG> >0x40 JTAG> >0x40 JTAG> >0x30 JTAG> >0x40 JTAG> >0x50 JTAG> >0x40 JTAG>Found Cortex-M4 r0p1, Little endian. >0x50 JTAG> >0x50 JTAG> >0x40 JTAG> >0x40 JTAG> >0x30 JTAG> >0x30 JTAG> >0x50 JTAG> >0x40 JTAG> >0x80 JTAG> >0x40 JTAG> >0x30 JTAG> >0x40 JTAG> >0x50 JTAG> >0x40 JTAG> >0x40 JTAG>
 >0x40 JTAG> >0x30 JTAG> >0x40 JTAG> >0x50 JTAG> >0x40 JTAG>TPIU fitted. >0x40 JTAG> >0x40 JTAG> >0x30 JTAG> >0x40 JTAG> >0x50 JTAG> >0x40 JTAG>ETM fitted. >0x40 JTAG> >0x40 JTAG> >0x30 JTAG> >0x40 JTAG> >0x50 JTAG> >0x40 JTAG> >0x40 JTAG> >0x40 JTAG> >0x30 JTAG> >0x40 JTAG> >0x50 JTAG> >0x40 JTAG>  FPUnit: 6 code (BP) slots and 2 literal slots >0x40 JTAG> >0x40 JTAG> >0x30 JTAG> >0x40 JTAG> >0x50 JTAG> >0x40 JTAG> >0x40 JTAG> >0x40 JTAG> >0x30 JTAG> >0x40 JTAG> >0x50 JTAG> >0x40 JTAG> >0x48 JTAG>
 >0x80 JTAG> >0x40 JTAG> >0x40 JTAG> >0x50 JTAG> >0x40 JTAG> >0x40 JTAG> >0x40 JTAG> >0x50 JTAG> >0x40 JTAG> >0x40 JTAG> >0x30 JTAG> >0x40 JTAG> >0x40 JTAG> >0x40 JTAG> >0x40 JTAG> >0x40 JTAG> >0x50 JTAG> >0x40 JTAG> >0x80 JTAG> >0x40 JTAG> >0x30 JTAG> >0x40 JTAG> >0x40 JTAG> >0x40 JTAG> >0x40 JTAG> >0x40 JTAG> >0x50 JTAG> >0x40 JTAG> >0x80 JTAG> >0x40 JTAG> >0x30 JTAG> >0x40 JTAG> >0x50 JTAG> >0x40 JTAG> >0x40 JTAG> >0x40 JTAG> >0x30 JTAG> >0x40 JTAG> >0x50 JTAG> >0x40 JTAG>
Found Cortex-M4 r0p1, Little endian. >0x50 JTAG> >0x50 JTAG> >0x40 JTAG> >0x40 JTAG> >0x30 JTAG> >0x30 JTAG> >0x50 JTAG> >0x40 JTAG> >0x80 JTAG> >0x40 JTAG> >0x30 JTAG> >0x40 JTAG> >0x50 JTAG> >0x40 JTAG> >0x40 JTAG> >0x40 JTAG> >0x30 JTAG> >0x40 JTAG> >0x50 JTAG> >0x40 JTAG>TPIU fitted. >0x40 JTAG> >0x40 JTAG> >0x30 JTAG> >0x40 JTAG> >0x50 JTAG> >0x40 JTAG>ETM fitted. >0x40 JTAG> >0x40 JTAG> >0x30 JTAG> >0x40 JTAG> >0x50 JTAG> >0x40 JTAG> >0x40 JTAG> >0x40 JTAG> >0x30 JTAG> >0x40 JTAG> >0x50 JTAG>
 >0x40 JTAG>  FPUnit: 6 code (BP) slots and 2 literal slots >0x40 JTAG> >0x40 JTAG> >0x30 JTAG> >0x40 JTAG> >0x50 JTAG> >0x40 JTAG> >0x40 JTAG> >0x40 JTAG> >0x30 JTAG> >0x40 JTAG> >0x50 JTAG> >0x40 JTAG> -- CPU_WriteMem(4 bytes @ 0xE000EDF0) -- CPU_WriteMem(4 bytes @ 0xE000EDFC) -- CPU_WriteMem(4 bytes @ 0xE000ED0C) -- CPU_ReadMem(4 bytes @ 0xE000EDF0) -- CPU_ReadMem(4 bytes @ 0xE000EDF0) -- CPU_WriteMem(4 bytes @ 0xE000EDF0) -- CPU_WriteMem(4 bytes @ 0xE000EDFC) -- CPU is running
 -- CPU_ReadMem(4 bytes @ 0xE000EDF0) >0x90 JTAG> >0x40 JTAG> >0x30 JTAG> >0x40 JTAG> >0x50 JTAG> >0x40 JTAG> -- CPU_WriteMem(4 bytes @ 0xE000EDFC) -- CPU_WriteMem(4 bytes @ 0xE0001028) -- CPU_WriteMem(4 bytes @ 0xE0001038) -- CPU_WriteMem(4 bytes @ 0xE0001048) -- CPU_WriteMem(4 bytes @ 0xE0001058) (0586ms, 1374ms total)
T0850 002:225 JLINK_ReadReg(R15)  returns 0x0800019C (0002ms, 1961ms total)
T0850 002:227 JLINK_ReadReg(XPSR)  returns 0x01000000 (0002ms, 1963ms total)
T0850 002:230 JLINK_ReadMemU32(0xE0001004, 0x0001 Items, ...) -- CPU_ReadMem(4 bytes @ 0xE0001004) -- Data:  00 00 00 00  returns 0x01 (0005ms, 1966ms total)
T0850 002:280 JLINK_ReadMem (0x0800019C, 0x003C Bytes, ...) -- CPU_ReadMem(128 bytes @ 0x08000180) -- Updating C cache (128 bytes @ 0x08000180) -- Read from C cache (60 bytes @ 0x0800019C) -- Data:  06 48 80 47 06 48 00 47 FE E7 FE E7 FE E7 FE E7 ...  returns 0x00 (0012ms, 1972ms total)
T0EE4 003:066 JLINK_SetBPEx(Addr = 0x08004418, Type = 0xFFFFFFF2)  returns 0x00000001 (0032ms, 1985ms total)
T0EE4 003:099 JLINK_SetBPEx(Addr = 0x08004430, Type = 0xFFFFFFF2)  returns 0x00000002 (0002ms, 2018ms total)
T0EE4 003:101 JLINK_Go() -- CPU_WriteMem(4 bytes @ 0xE0002000) -- CPU_WriteMem(4 bytes @ 0xE0002008) -- CPU_WriteMem(4 bytes @ 0xE000200C) -- CPU_WriteMem(4 bytes @ 0xE0002010) -- CPU_WriteMem(4 bytes @ 0xE0002014) -- CPU_WriteMem(4 bytes @ 0xE0002018) -- CPU_WriteMem(4 bytes @ 0xE000201C) (0040ms, 2020ms total)
T0EE4 003:242 JLINK_IsHalted()  returns TRUE (0038ms, 2060ms total)
T0EE4 003:281 JLINK_Halt()  returns 0x00 (0002ms, 2060ms total)
T0EE4 003:284 JLINK_IsHalted()  returns TRUE (0003ms, 2063ms total)
T0EE4 003:287 JLINK_IsHalted()  returns TRUE (0002ms, 2063ms total)
T0EE4 003:289 JLINK_IsHalted()  returns TRUE (0001ms, 2063ms total)
T0EE4 003:290 JLINK_ReadReg(R15)  returns 0x08004418 (0001ms, 2063ms total)
T0EE4 003:292 JLINK_ReadReg(XPSR)  returns 0x61000000 (0001ms, 2065ms total)
T0EE4 003:293 JLINK_ClrBPEx(BPHandle = 0x00000001)  returns 0x00 (0002ms, 2066ms total)
T0EE4 003:296 JLINK_ClrBPEx(BPHandle = 0x00000002)  returns 0x00 (0002ms, 2069ms total)
T0EE4 003:299 JLINK_ReadMemU32(0xE000ED30, 0x0001 Items, ...) -- CPU_ReadMem(4 bytes @ 0xE000ED30) -- Data:  03 00 00 00  returns 0x01 (0006ms, 2071ms total)
T0EE4 003:305 JLINK_ReadMemU32(0xE0001028, 0x0001 Items, ...) -- CPU_ReadMem(4 bytes @ 0xE0001028) -- Data:  00 00 00 00  returns 0x01 (0006ms, 2077ms total)
T0EE4 003:312 JLINK_ReadMemU32(0xE0001038, 0x0001 Items, ...) -- CPU_ReadMem(4 bytes @ 0xE0001038) -- Data:  00 02 00 00  returns 0x01 (0007ms, 2084ms total)
T0EE4 003:320 JLINK_ReadMemU32(0xE0001048, 0x0001 Items, ...) -- CPU_ReadMem(4 bytes @ 0xE0001048) -- Data:  00 00 00 00  returns 0x01 (0005ms, 2092ms total)
T0EE4 003:325 JLINK_ReadMemU32(0xE0001058, 0x0001 Items, ...) -- CPU_ReadMem(4 bytes @ 0xE0001058) -- Data:  00 00 00 00  returns 0x01 (0004ms, 2097ms total)
T0EE4 003:329 JLINK_ReadReg(R0)  returns 0x08004419 (0001ms, 2101ms total)
T0EE4 003:331 JLINK_ReadReg(R1)  returns 0x200081F8 (0001ms, 2103ms total)
T0EE4 003:333 JLINK_ReadReg(R2)  returns 0x00000000 (0001ms, 2105ms total)
T0EE4 003:334 JLINK_ReadReg(R3)  returns 0x08001A7D (0002ms, 2106ms total)
T0EE4 003:337 JLINK_ReadReg(R4)  returns 0x08014A00 (0001ms, 2109ms total)
T0EE4 003:339 JLINK_ReadReg(R5)  returns 0x08014A00 (0002ms, 2111ms total)
T0EE4 003:341 JLINK_ReadReg(R6)  returns 0x00000000 (0001ms, 2113ms total)
T0EE4 003:343 JLINK_ReadReg(R7)  returns 0x00000000 (0001ms, 2115ms total)
T0EE4 003:345 JLINK_ReadReg(R8)  returns 0x00000000 (0001ms, 2117ms total)
T0EE4 003:346 JLINK_ReadReg(R9)  returns 0x00000000 (0002ms, 2118ms total)
T0EE4 003:348 JLINK_ReadReg(R10)  returns 0x00000000 (0001ms, 2120ms total)
T0EE4 003:349 JLINK_ReadReg(R11)  returns 0x00000000 (0001ms, 2121ms total)
T0EE4 003:350 JLINK_ReadReg(R12)  returns 0x00000000 (0001ms, 2122ms total)
T0EE4 003:351 JLINK_ReadReg(R13)  returns 0x200081F8 (0001ms, 2123ms total)
T0EE4 003:353 JLINK_ReadReg(R14)  returns 0x080004D1 (0001ms, 2125ms total)
T0EE4 003:354 JLINK_ReadReg(R15)  returns 0x08004418 (0001ms, 2126ms total)
T0EE4 003:355 JLINK_ReadReg(XPSR)  returns 0x61000000 (0001ms, 2127ms total)
T0EE4 003:356 JLINK_ReadReg(MSP)  returns 0x200081F8 (0001ms, 2128ms total)
T0EE4 003:357 JLINK_ReadReg(PSP)  returns 0x00000000 (0001ms, 2129ms total)
T0EE4 003:358 JLINK_ReadReg(CFBP)  returns 0x00000000 (0001ms, 2130ms total)
T0EE4 003:359 JLINK_ReadReg(FPSCR)  returns 0x00000000 (0025ms, 2131ms total)
T0EE4 003:385 JLINK_ReadReg(FPS0)  returns 0x00000000 (0002ms, 2157ms total)
T0EE4 003:387 JLINK_ReadReg(FPS1)  returns 0x00000000 (0003ms, 2159ms total)
T0EE4 003:391 JLINK_ReadReg(FPS2)  returns 0x00000000 (0002ms, 2163ms total)
T0EE4 003:394 JLINK_ReadReg(FPS3)  returns 0x00000000 (0002ms, 2166ms total)
T0EE4 003:396 JLINK_ReadReg(FPS4)  returns 0x00000000 (0001ms, 2168ms total)
T0EE4 003:397 JLINK_ReadReg(FPS5)  returns 0x00000000 (0001ms, 2169ms total)
T0EE4 003:398 JLINK_ReadReg(FPS6)  returns 0x00000000 (0001ms, 2170ms total)
T0EE4 003:400 JLINK_ReadReg(FPS7)  returns 0x00000000 (0001ms, 2172ms total)
T0EE4 003:401 JLINK_ReadReg(FPS8)  returns 0x00000000 (0001ms, 2173ms total)
T0EE4 003:402 JLINK_ReadReg(FPS9)  returns 0x00000000 (0001ms, 2174ms total)
T0EE4 003:403 JLINK_ReadReg(FPS10)  returns 0x00000000 (0001ms, 2175ms total)
T0EE4 003:404 JLINK_ReadReg(FPS11)  returns 0x00000000 (0001ms, 2176ms total)
T0EE4 003:405 JLINK_ReadReg(FPS12)  returns 0x00000000 (0002ms, 2177ms total)
T0EE4 003:407 JLINK_ReadReg(FPS13)  returns 0x00000000 (0001ms, 2179ms total)
T0EE4 003:408 JLINK_ReadReg(FPS14)  returns 0x00000000 (0001ms, 2180ms total)
T0EE4 003:409 JLINK_ReadReg(FPS15)  returns 0x00000000 (0001ms, 2181ms total)
T0EE4 003:410 JLINK_ReadReg(FPS16)  returns 0x00000000 (0001ms, 2182ms total)
T0EE4 003:411 JLINK_ReadReg(FPS17)  returns 0x00000000 (0001ms, 2183ms total)
T0EE4 003:413 JLINK_ReadReg(FPS18)  returns 0x00000000 (0000ms, 2185ms total)
T0EE4 003:414 JLINK_ReadReg(FPS19)  returns 0x00000000 (0003ms, 2186ms total)
T0EE4 003:417 JLINK_ReadReg(FPS20)  returns 0x00000000 (0001ms, 2189ms total)
T0EE4 003:418 JLINK_ReadReg(FPS31)  returns 0x00000000 (0001ms, 2190ms total)
T0EE4 003:419 JLINK_ReadReg(FPS7)  returns 0x00000000 (0001ms, 2191ms total)
T0EE4 003:420 JLINK_ReadReg(FPS8)  returns 0x00000000 (0001ms, 2192ms total)
T0EE4 003:421 JLINK_ReadReg(FPS9)  returns 0x00000000 (0001ms, 2193ms total)
T0EE4 003:422 JLINK_ReadReg(FPS10)  returns 0x00000000 (0001ms, 2194ms total)
T0EE4 003:424 JLINK_ReadReg(FPS11)  returns 0x00000000 (0000ms, 2196ms total)
T0EE4 003:425 JLINK_ReadReg(FPS12)  returns 0x00000000 (0000ms, 2197ms total)
T0EE4 003:426 JLINK_ReadReg(FPS13)  returns 0x00000000 (0000ms, 2198ms total)
T0EE4 003:427 JLINK_ReadReg(FPS14)  returns 0x00000000 (0001ms, 2199ms total)
T0EE4 003:428 JLINK_ReadReg(FPS15)  returns 0x00000000 (0001ms, 2200ms total)
T0EE4 003:429 JLINK_ReadReg(FPS16)  returns 0x00000000 (0001ms, 2201ms total)
T0850 003:430 JLINK_WriteReg(R0, 0x08004419)  returns 0x00 (0001ms, 2202ms total)
T0850 003:431 JLINK_WriteReg(R1, 0x200081F8)  returns 0x00 (0001ms, 2203ms total)
T0850 003:433 JLINK_WriteReg(R2, 0x00000000)  returns 0x00 (0000ms, 2205ms total)
T0850 003:434 JLINK_WriteReg(R3, 0x08001A7D)  returns 0x00 (0001ms, 2206ms total)
T0850 003:435 JLINK_WriteReg(R4, 0x08014A00)  returns 0x00 (0001ms, 2207ms total)
T0850 003:436 JLINK_WriteReg(R5, 0x08014A00)  returns 0x00 (0001ms, 2208ms total)
T0850 003:437 JLINK_WriteReg(R6, 0x00000000)  returns 0x00 (0001ms, 2209ms total)
T0850 003:438 JLINK_WriteReg(R7, 0x00000000)  returns 0x00 (0001ms, 2210ms total)
T0850 003:439 JLINK_WriteReg(R8, 0x00000000)  returns 0x00 (0001ms, 2211ms total)
T0850 003:440 JLINK_WriteReg(R9, 0x00000000)  returns 0x00 (0001ms, 2212ms total)
T0850 003:442 JLINK_WriteReg(R10, 0x00000000)  returns 0x00 (0000ms, 2214ms total)
T0850 003:443 JLINK_WriteReg(R11, 0x00000000)  returns 0x00 (0001ms, 2215ms total)
T0850 003:444 JLINK_WriteReg(R12, 0x00000000)  returns 0x00 (0001ms, 2216ms total)
T0850 003:445 JLINK_WriteReg(R13, 0x200081F8)  returns 0x00 (0001ms, 2217ms total)
T0850 003:446 JLINK_WriteReg(R14, 0x080004D1)  returns 0x00 (0001ms, 2218ms total)
T0850 003:447 JLINK_WriteReg(R15, 0x08004418)  returns 0x00 (0001ms, 2219ms total)
T0850 003:448 JLINK_WriteReg(XPSR, 0x61000000)  returns 0x00 (0001ms, 2220ms total)
T0850 003:450 JLINK_WriteReg(MSP, 0x200081F8)  returns 0x00 (0000ms, 2222ms total)
T0850 003:451 JLINK_WriteReg(PSP, 0x00000000)  returns 0x00 (0001ms, 2223ms total)
T0850 003:452 JLINK_WriteReg(CFBP, 0x00000000)  returns 0x00 (0001ms, 2224ms total)
T0850 003:453 JLINK_WriteReg(FPSCR, 0x00000000)  returns 0x00 (0001ms, 2225ms total)
T0850 003:454 JLINK_WriteReg(FPS0, 0x00000000)  returns 0x00 (0001ms, 2226ms total)
T0850 003:455 JLINK_WriteReg(FPS1, 0x00000000)  returns 0x00 (0001ms, 2227ms total)
T0850 003:456 JLINK_WriteReg(FPS2, 0x00000000)  returns 0x00 (0001ms, 2228ms total)
T0850 003:457 JLINK_WriteReg(FPS3, 0x00000000)  returns 0x00 (0001ms, 2229ms total)
T0850 003:458 JLINK_WriteReg(FPS4, 0x00000000)  returns 0x00 (0001ms, 2230ms total)
T0850 003:460 JLINK_WriteReg(FPS5, 0x00000000)  returns 0x00 (0000ms, 2232ms total)
T0850 003:461 JLINK_WriteReg(FPS6, 0x00000000)  returns 0x00 (0001ms, 2233ms total)
T0850 003:462 JLINK_WriteReg(FPS7, 0x00000000)  returns 0x00 (0001ms, 2234ms total)
T0850 003:463 JLINK_WriteReg(FPS8, 0x00000000)  returns 0x00 (0001ms, 2235ms total)
T0850 003:465 JLINK_WriteReg(FPS9, 0x00000000)  returns 0x00 (0001ms, 2237ms total)
T0850 003:466 JLINK_WriteReg(FPS10, 0x00000000)  returns 0x00 (0001ms, 2238ms total)
T0850 003:467 JLINK_WriteReg(FPS11, 0x00000000)  returns 0x00 (0001ms, 2239ms total)
T0850 003:468 JLINK_WriteReg(FPS12, 0x00000000)  returns 0x00 (0001ms, 2240ms total)
T0850 003:469 JLINK_WriteReg(FPS13, 0x00000000)  returns 0x00 (0001ms, 2241ms total)
T0850 003:470 JLINK_WriteReg(FPS14, 0x00000000)  returns 0x00 (0001ms, 2242ms total)
T0850 003:471 JLINK_WriteReg(FPS15, 0x00000000)  returns 0x00 (0001ms, 2243ms total)
T0850 003:473 JLINK_WriteReg(FPS16, 0x00000000)  returns 0x00 (0000ms, 2245ms total)
T0850 003:474 JLINK_WriteReg(FPS17, 0x00000000)  returns 0x00 (0001ms, 2246ms total)
T0850 003:475 JLINK_WriteReg(FPS18, 0x00000000)  returns 0x00 (0001ms, 2247ms total)
T0850 003:476 JLINK_WriteReg(FPS19, 0x00000000)  returns 0x00 (0001ms, 2248ms total)
T0850 003:477 JLINK_WriteReg(FPS20, 0x00000000)  returns 0x00 (0001ms, 2249ms total)
T0850 003:478 JLINK_WriteReg(FPS31, 0x00000000)  returns 0x00 (0001ms, 2250ms total)
T0850 003:479 JLINK_WriteReg(FPS7, 0x00000000)  returns 0x00 (0001ms, 2251ms total)
T0850 003:480 JLINK_WriteReg(FPS8, 0x00000000)  returns 0x00 (0001ms, 2252ms total)
T0850 003:481 JLINK_WriteReg(FPS9, 0x00000000)  returns 0x00 (0001ms, 2253ms total)
T0850 003:482 JLINK_WriteReg(FPS10, 0x00000000)  returns 0x00 (0001ms, 2254ms total)
T0850 003:483 JLINK_WriteReg(FPS11, 0x00000000)  returns 0x00 (0001ms, 2255ms total)
T0850 003:484 JLINK_WriteReg(FPS12, 0x00000000)  returns 0x00 (0001ms, 2256ms total)
T0850 003:485 JLINK_WriteReg(FPS13, 0x00000000)  returns 0x00 (0001ms, 2257ms total)
T0850 003:486 JLINK_WriteReg(FPS14, 0x00000000)  returns 0x00 (0001ms, 2258ms total)
T0850 003:487 JLINK_WriteReg(FPS15, 0x00000000)  returns 0x00 (0001ms, 2259ms total)
T0850 003:488 JLINK_WriteReg(FPS16, 0x00000000)  returns 0x00 (0001ms, 2260ms total)
T0850 003:489 JLINK_ReadMem (0x00000000, 0x0004 Bytes, ...)
                JLINK_ReadMemHW(0x00000000, 0x0004 Bytes, ...) -- CPU_ReadMem(4 bytes @ 0x00000000) -- Data:  F8 81 00 20  returns 0x00 (0026ms, 0000ms total)
                JLINK_ReadMemHW(0x08000000, 0x0004 Bytes, ...) -- CPU_ReadMem(4 bytes @ 0x08000000) -- Data:  F8 81 00 20  returns 0x00 (0003ms, 0027ms total)
                JLINK_WriteMemHW(0x00000000, 0x0004 Bytes, ...) -- Data:  09 00 01 00 -- CPU_WriteMem(4 bytes @ 0x00000000)  returns 0x04 (0008ms, 0030ms total)
                JLINK_ReadMemHW(0x00000000, 0x0004 Bytes, ...) -- CPU_ReadMem(4 bytes @ 0x00000000) -- Data:  F8 81 00 20  returns 0x00 (0004ms, 0039ms total)
               -- MA0 is in flash -- Unmirror addr 0x00000000 -- CPU_ReadMem(64 bytes @ 0x08000000) -- Updating C cache (64 bytes @ 0x08000000) -- Read from C cache (4 bytes @ 0x08000000) -- Data:  F8 81 00 20  returns 0x00 (0053ms, 2261ms total)
T0850 003:547 JLINK_ReadReg(R0)  returns 0x08004419 (0003ms, 2314ms total)
T0850 003:550 JLINK_ReadReg(R1)  returns 0x200081F8 (0002ms, 2317ms total)
T0850 003:552 JLINK_ReadReg(R2)  returns 0x00000000 (0001ms, 2319ms total)
T0850 003:554 JLINK_ReadReg(R3)  returns 0x08001A7D (0001ms, 2321ms total)
T0850 003:555 JLINK_ReadReg(R4)  returns 0x08014A00 (0001ms, 2322ms total)
T0850 003:556 JLINK_ReadReg(R5)  returns 0x08014A00 (0001ms, 2323ms total)
T0850 003:557 JLINK_ReadReg(R6)  returns 0x00000000 (0001ms, 2324ms total)
T0850 003:558 JLINK_ReadReg(R7)  returns 0x00000000 (0001ms, 2325ms total)
T0850 003:559 JLINK_ReadReg(R8)  returns 0x00000000 (0001ms, 2326ms total)
T0850 003:560 JLINK_ReadReg(R9)  returns 0x00000000 (0001ms, 2327ms total)
T0850 003:561 JLINK_ReadReg(R10)  returns 0x00000000 (0001ms, 2328ms total)
T0850 003:562 JLINK_ReadReg(R11)  returns 0x00000000 (0001ms, 2329ms total)
T0850 003:563 JLINK_ReadReg(R12)  returns 0x00000000 (0001ms, 2330ms total)
T0850 003:564 JLINK_ReadReg(R13)  returns 0x200081F8 (0001ms, 2331ms total)
T0850 003:565 JLINK_ReadReg(R14)  returns 0x080004D1 (0001ms, 2332ms total)
T0850 003:566 JLINK_ReadReg(R15)  returns 0x08004418 (0000ms, 2333ms total)
T0850 003:567 JLINK_ReadReg(XPSR)  returns 0x61000000 (0000ms, 2334ms total)
T0850 003:567 JLINK_ReadReg(MSP)  returns 0x200081F8 (0001ms, 2334ms total)
T0850 003:568 JLINK_ReadReg(PSP)  returns 0x00000000 (0001ms, 2335ms total)
T0850 003:569 JLINK_ReadReg(CFBP)  returns 0x00000000 (0001ms, 2336ms total)
T0850 003:570 JLINK_ReadReg(FPSCR)  returns 0x00000000 (0001ms, 2337ms total)
T0850 003:571 JLINK_ReadReg(FPS0)  returns 0x00000000 (0001ms, 2338ms total)
T0850 003:572 JLINK_ReadReg(FPS1)  returns 0x00000000 (0002ms, 2339ms total)
T0850 003:574 JLINK_ReadReg(FPS2)  returns 0x00000000 (0001ms, 2341ms total)
T0850 003:575 JLINK_ReadReg(FPS3)  returns 0x00000000 (0001ms, 2342ms total)
T0850 003:576 JLINK_ReadReg(FPS4)  returns 0x00000000 (0001ms, 2343ms total)
T0850 003:578 JLINK_ReadReg(FPS5)  returns 0x00000000 (0001ms, 2345ms total)
T0850 003:579 JLINK_ReadReg(FPS6)  returns 0x00000000 (0002ms, 2346ms total)
T0850 003:581 JLINK_ReadReg(FPS7)  returns 0x00000000 (0001ms, 2348ms total)
T0850 003:582 JLINK_ReadReg(FPS8)  returns 0x00000000 (0001ms, 2349ms total)
T0850 003:583 JLINK_ReadReg(FPS9)  returns 0x00000000 (0001ms, 2350ms total)
T0850 003:584 JLINK_ReadReg(FPS10)  returns 0x00000000 (0001ms, 2351ms total)
T0850 003:585 JLINK_ReadReg(FPS11)  returns 0x00000000 (0001ms, 2352ms total)
T0850 003:586 JLINK_ReadReg(FPS12)  returns 0x00000000 (0001ms, 2353ms total)
T0850 003:587 JLINK_ReadReg(FPS13)  returns 0x00000000 (0001ms, 2354ms total)
T0850 003:588 JLINK_ReadReg(FPS14)  returns 0x00000000 (0001ms, 2355ms total)
T0850 003:589 JLINK_ReadReg(FPS15)  returns 0x00000000 (0001ms, 2356ms total)
T0850 003:590 JLINK_ReadReg(FPS16)  returns 0x00000000 (0001ms, 2357ms total)
T0850 003:591 JLINK_ReadReg(FPS17)  returns 0x00000000 (0001ms, 2358ms total)
T0850 003:592 JLINK_ReadReg(FPS18)  returns 0x00000000 (0001ms, 2359ms total)
T0850 003:593 JLINK_ReadReg(FPS19)  returns 0x00000000 (0001ms, 2360ms total)
T0850 003:594 JLINK_ReadReg(FPS20)  returns 0x00000000 (0001ms, 2361ms total)
T0850 003:595 JLINK_ReadReg(FPS31)  returns 0x00000000 (0001ms, 2362ms total)
T0850 003:596 JLINK_ReadReg(FPS7)  returns 0x00000000 (0001ms, 2363ms total)
T0850 003:597 JLINK_ReadReg(FPS8)  returns 0x00000000 (0001ms, 2364ms total)
T0850 003:598 JLINK_ReadReg(FPS9)  returns 0x00000000 (0001ms, 2365ms total)
T0850 003:600 JLINK_ReadReg(FPS10)  returns 0x00000000 (0001ms, 2367ms total)
T0850 003:601 JLINK_ReadReg(FPS11)  returns 0x00000000 (0001ms, 2368ms total)
T0850 003:602 JLINK_ReadReg(FPS12)  returns 0x00000000 (0001ms, 2369ms total)
T0850 003:603 JLINK_ReadReg(FPS13)  returns 0x00000000 (0001ms, 2370ms total)
T0850 003:604 JLINK_ReadReg(FPS14)  returns 0x00000000 (0001ms, 2371ms total)
T0850 003:605 JLINK_ReadReg(FPS15)  returns 0x00000000 (0001ms, 2372ms total)
T0850 003:606 JLINK_ReadReg(FPS16)  returns 0x00000000 (0001ms, 2373ms total)
T0850 003:607 JLINK_WriteReg(R0, 0x08004419)  returns 0x00 (0001ms, 2374ms total)
T0850 003:608 JLINK_WriteReg(R1, 0x200081F8)  returns 0x00 (0001ms, 2375ms total)
T0850 003:609 JLINK_WriteReg(R2, 0x00000000)  returns 0x00 (0001ms, 2376ms total)
T0850 003:610 JLINK_WriteReg(R3, 0x08001A7D)  returns 0x00 (0001ms, 2377ms total)
T0850 003:611 JLINK_WriteReg(R4, 0x08014A00)  returns 0x00 (0001ms, 2378ms total)
T0850 003:612 JLINK_WriteReg(R5, 0x08014A00)  returns 0x00 (0001ms, 2379ms total)
T0850 003:613 JLINK_WriteReg(R6, 0x00000000)  returns 0x00 (0001ms, 2380ms total)
T0850 003:614 JLINK_WriteReg(R7, 0x00000000)  returns 0x00 (0001ms, 2381ms total)
T0850 003:615 JLINK_WriteReg(R8, 0x00000000)  returns 0x00 (0001ms, 2382ms total)
T0850 003:617 JLINK_WriteReg(R9, 0x00000000)  returns 0x00 (0000ms, 2384ms total)
T0850 003:618 JLINK_WriteReg(R10, 0x00000000)  returns 0x00 (0000ms, 2385ms total)
T0850 003:619 JLINK_WriteReg(R11, 0x00000000)  returns 0x00 (0000ms, 2386ms total)
T0850 003:620 JLINK_WriteReg(R12, 0x00000000)  returns 0x00 (0000ms, 2387ms total)
T0850 003:621 JLINK_WriteReg(R13, 0x200081F8)  returns 0x00 (0001ms, 2388ms total)
T0850 003:622 JLINK_WriteReg(R14, 0x080004D1)  returns 0x00 (0001ms, 2389ms total)
T0850 003:623 JLINK_WriteReg(R15, 0x08004418)  returns 0x00 (0001ms, 2390ms total)
T0850 003:625 JLINK_WriteReg(XPSR, 0x61000000)  returns 0x00 (0000ms, 2392ms total)
T0850 003:626 JLINK_WriteReg(MSP, 0x200081F8)  returns 0x00 (0000ms, 2393ms total)
T0850 003:627 JLINK_WriteReg(PSP, 0x00000000)  returns 0x00 (0000ms, 2394ms total)
T0850 003:628 JLINK_WriteReg(CFBP, 0x00000000)  returns 0x00 (0001ms, 2395ms total)
T0850 003:629 JLINK_WriteReg(FPSCR, 0x00000000)  returns 0x00 (0001ms, 2396ms total)
T0850 003:630 JLINK_WriteReg(FPS0, 0x00000000)  returns 0x00 (0001ms, 2397ms total)
T0850 003:631 JLINK_WriteReg(FPS1, 0x00000000)  returns 0x00 (0001ms, 2398ms total)
T0850 003:632 JLINK_WriteReg(FPS2, 0x00000000)  returns 0x00 (0001ms, 2399ms total)
T0850 003:633 JLINK_WriteReg(FPS3, 0x00000000)  returns 0x00 (0001ms, 2400ms total)
T0850 003:634 JLINK_WriteReg(FPS4, 0x00000000)  returns 0x00 (0001ms, 2401ms total)
T0850 003:635 JLINK_WriteReg(FPS5, 0x00000000)  returns 0x00 (0001ms, 2402ms total)
T0850 003:636 JLINK_WriteReg(FPS6, 0x00000000)  returns 0x00 (0001ms, 2403ms total)
T0850 003:637 JLINK_WriteReg(FPS7, 0x00000000)  returns 0x00 (0001ms, 2404ms total)
T0850 003:638 JLINK_WriteReg(FPS8, 0x00000000)  returns 0x00 (0001ms, 2405ms total)
T0850 003:639 JLINK_WriteReg(FPS9, 0x00000000)  returns 0x00 (0001ms, 2406ms total)
T0850 003:640 JLINK_WriteReg(FPS10, 0x00000000)  returns 0x00 (0001ms, 2407ms total)
T0850 003:641 JLINK_WriteReg(FPS11, 0x00000000)  returns 0x00 (0001ms, 2408ms total)
T0850 003:642 JLINK_WriteReg(FPS12, 0x00000000)  returns 0x00 (0001ms, 2409ms total)
T0850 003:643 JLINK_WriteReg(FPS13, 0x00000000)  returns 0x00 (0001ms, 2410ms total)
T0850 003:644 JLINK_WriteReg(FPS14, 0x00000000)  returns 0x00 (0001ms, 2411ms total)
T0850 003:645 JLINK_WriteReg(FPS15, 0x00000000)  returns 0x00 (0001ms, 2412ms total)
T0850 003:646 JLINK_WriteReg(FPS16, 0x00000000)  returns 0x00 (0001ms, 2413ms total)
T0850 003:648 JLINK_WriteReg(FPS17, 0x00000000)  returns 0x00 (0000ms, 2415ms total)
T0850 003:649 JLINK_WriteReg(FPS18, 0x00000000)  returns 0x00 (0001ms, 2416ms total)
T0850 003:650 JLINK_WriteReg(FPS19, 0x00000000)  returns 0x00 (0001ms, 2417ms total)
T0850 003:651 JLINK_WriteReg(FPS20, 0x00000000)  returns 0x00 (0001ms, 2418ms total)
T0850 003:652 JLINK_WriteReg(FPS31, 0x00000000)  returns 0x00 (0001ms, 2419ms total)
T0850 003:653 JLINK_WriteReg(FPS7, 0x00000000)  returns 0x00 (0001ms, 2420ms total)
T0850 003:654 JLINK_WriteReg(FPS8, 0x00000000)  returns 0x00 (0001ms, 2421ms total)
T0850 003:655 JLINK_WriteReg(FPS9, 0x00000000)  returns 0x00 (0001ms, 2422ms total)
T0850 003:657 JLINK_WriteReg(FPS10, 0x00000000)  returns 0x00 (0000ms, 2424ms total)
T0850 003:658 JLINK_WriteReg(FPS11, 0x00000000)  returns 0x00 (0001ms, 2425ms total)
T0850 003:659 JLINK_WriteReg(FPS12, 0x00000000)  returns 0x00 (0001ms, 2426ms total)
T0850 003:660 JLINK_WriteReg(FPS13, 0x00000000)  returns 0x00 (0001ms, 2427ms total)
T0850 003:661 JLINK_WriteReg(FPS14, 0x00000000)  returns 0x00 (0001ms, 2428ms total)
T0850 003:662 JLINK_WriteReg(FPS15, 0x00000000)  returns 0x00 (0001ms, 2429ms total)
T0850 003:663 JLINK_WriteReg(FPS16, 0x00000000)  returns 0x00 (0001ms, 2430ms total)
T0850 003:664 JLINK_ReadReg(R0)  returns 0x08004419 (0001ms, 2431ms total)
T0850 003:665 JLINK_ReadReg(R1)  returns 0x200081F8 (0001ms, 2432ms total)
T0850 003:666 JLINK_ReadReg(R2)  returns 0x00000000 (0001ms, 2433ms total)
T0850 003:668 JLINK_ReadReg(R3)  returns 0x08001A7D (0000ms, 2435ms total)
T0850 003:669 JLINK_ReadReg(R4)  returns 0x08014A00 (0001ms, 2436ms total)
T0850 003:670 JLINK_ReadReg(R5)  returns 0x08014A00 (0001ms, 2437ms total)
T0850 003:671 JLINK_ReadReg(R6)  returns 0x00000000 (0001ms, 2438ms total)
T0850 003:673 JLINK_ReadReg(R7)  returns 0x00000000 (0000ms, 2440ms total)
T0850 003:674 JLINK_ReadReg(R8)  returns 0x00000000 (0001ms, 2441ms total)
T0850 003:675 JLINK_ReadReg(R9)  returns 0x00000000 (0001ms, 2442ms total)
T0850 003:676 JLINK_ReadReg(R10)  returns 0x00000000 (0001ms, 2443ms total)
T0850 003:677 JLINK_ReadReg(R11)  returns 0x00000000 (0001ms, 2444ms total)
T0850 003:679 JLINK_ReadReg(R12)  returns 0x00000000 (0000ms, 2446ms total)
T0850 003:680 JLINK_ReadReg(R13)  returns 0x200081F8 (0001ms, 2447ms total)
T0850 003:681 JLINK_ReadReg(R14)  returns 0x080004D1 (0000ms, 2448ms total)
T0850 003:682 JLINK_ReadReg(R15)  returns 0x08004418 (0000ms, 2449ms total)
T0850 003:682 JLINK_ReadReg(XPSR)  returns 0x61000000 (0001ms, 2449ms total)
T0850 003:683 JLINK_ReadReg(MSP)  returns 0x200081F8 (0001ms, 2450ms total)
T0850 003:684 JLINK_ReadReg(PSP)  returns 0x00000000 (0001ms, 2451ms total)
T0850 003:685 JLINK_ReadReg(CFBP)  returns 0x00000000 (0001ms, 2452ms total)
T0850 003:686 JLINK_ReadReg(FPSCR)  returns 0x00000000 (0001ms, 2453ms total)
T0850 003:687 JLINK_ReadReg(FPS0)  returns 0x00000000 (0000ms, 2454ms total)
T0850 003:688 JLINK_ReadReg(FPS1)  returns 0x00000000 (0000ms, 2455ms total)
T0850 003:689 JLINK_ReadReg(FPS2)  returns 0x00000000 (0000ms, 2456ms total)
T0850 003:689 JLINK_ReadReg(FPS3)  returns 0x00000000 (0001ms, 2456ms total)
T0850 003:690 JLINK_ReadReg(FPS4)  returns 0x00000000 (0001ms, 2457ms total)
T0850 003:691 JLINK_ReadReg(FPS5)  returns 0x00000000 (0001ms, 2458ms total)
T0850 003:692 JLINK_ReadReg(FPS6)  returns 0x00000000 (0001ms, 2459ms total)
T0850 003:693 JLINK_ReadReg(FPS7)  returns 0x00000000 (0001ms, 2460ms total)
T0850 003:694 JLINK_ReadReg(FPS8)  returns 0x00000000 (0001ms, 2461ms total)
T0850 003:695 JLINK_ReadReg(FPS9)  returns 0x00000000 (0001ms, 2462ms total)
T0850 003:696 JLINK_ReadReg(FPS10)  returns 0x00000000 (0001ms, 2463ms total)
T0850 003:697 JLINK_ReadReg(FPS11)  returns 0x00000000 (0001ms, 2464ms total)
T0850 003:698 JLINK_ReadReg(FPS12)  returns 0x00000000 (0001ms, 2465ms total)
T0850 003:700 JLINK_ReadReg(FPS13)  returns 0x00000000 (0001ms, 2467ms total)
T0850 003:701 JLINK_ReadReg(FPS14)  returns 0x00000000 (0001ms, 2468ms total)
T0850 003:702 JLINK_ReadReg(FPS15)  returns 0x00000000 (0001ms, 2469ms total)
T0850 003:703 JLINK_ReadReg(FPS16)  returns 0x00000000 (0001ms, 2470ms total)
T0850 003:704 JLINK_ReadReg(FPS17)  returns 0x00000000 (0001ms, 2471ms total)
T0850 003:705 JLINK_ReadReg(FPS18)  returns 0x00000000 (0001ms, 2472ms total)
T0850 003:706 JLINK_ReadReg(FPS19)  returns 0x00000000 (0001ms, 2473ms total)
T0850 003:707 JLINK_ReadReg(FPS20)  returns 0x00000000 (0001ms, 2474ms total)
T0850 003:708 JLINK_ReadReg(FPS31)  returns 0x00000000 (0001ms, 2475ms total)
T0850 003:710 JLINK_ReadReg(FPS7)  returns 0x00000000 (0000ms, 2477ms total)
T0850 003:711 JLINK_ReadReg(FPS8)  returns 0x00000000 (0001ms, 2478ms total)
T0850 003:712 JLINK_ReadReg(FPS9)  returns 0x00000000 (0001ms, 2479ms total)
T0850 003:713 JLINK_ReadReg(FPS10)  returns 0x00000000 (0001ms, 2480ms total)
T0850 003:714 JLINK_ReadReg(FPS11)  returns 0x00000000 (0001ms, 2481ms total)
T0850 003:715 JLINK_ReadReg(FPS12)  returns 0x00000000 (0001ms, 2482ms total)
T0850 003:716 JLINK_ReadReg(FPS13)  returns 0x00000000 (0001ms, 2483ms total)
T0850 003:717 JLINK_ReadReg(FPS14)  returns 0x00000000 (0001ms, 2484ms total)
T0850 003:718 JLINK_ReadReg(FPS15)  returns 0x00000000 (0002ms, 2485ms total)
T0850 003:720 JLINK_ReadReg(FPS16)  returns 0x00000000 (0001ms, 2487ms total)
T0850 003:721 JLINK_ReadMemU32(0xE0001004, 0x0001 Items, ...) -- CPU_ReadMem(4 bytes @ 0xE0001004) -- Data:  5B E3 00 00  returns 0x01 (0011ms, 2488ms total)
T0850 003:814 JLINK_ReadMem (0x08004418, 0x003C Bytes, ...) -- CPU_ReadMem(128 bytes @ 0x08004400) -- Updating C cache (128 bytes @ 0x08004400) -- Read from C cache (60 bytes @ 0x08004418) -- Data:  00 24 07 E0 00 25 00 E0 6D 1C 4F F6 DC 70 85 42 ...  returns 0x00 (0013ms, 2500ms total)
T0EE4 005:700 JLINK_SetBPEx(Addr = 0x08004430, Type = 0xFFFFFFF2)  returns 0x00000003 (0022ms, 2513ms total)
T0EE4 005:722 JLINK_Go() -- CPU_WriteMem(4 bytes @ 0xE000200C) -- CPU_WriteMem(4 bytes @ 0xE0002008) -- CPU_WriteMem(4 bytes @ 0xE0002008) -- CPU_WriteMem(4 bytes @ 0xE000200C) -- CPU_WriteMem(4 bytes @ 0xE0002010) -- CPU_WriteMem(4 bytes @ 0xE0002014) -- CPU_WriteMem(4 bytes @ 0xE0002018) -- CPU_WriteMem(4 bytes @ 0xE000201C) -- Invalidate MA0 status (0024ms, 2535ms total)
T0EE4 005:847 JLINK_IsHalted()  returns TRUE (0038ms, 2560ms total)
T0EE4 005:886 JLINK_Halt()  returns 0x00 (0003ms, 2560ms total)
T0EE4 005:890 JLINK_IsHalted()  returns TRUE (0002ms, 2564ms total)
T0EE4 005:892 JLINK_IsHalted()  returns TRUE (0002ms, 2564ms total)
T0EE4 005:895 JLINK_IsHalted()  returns TRUE (0002ms, 2564ms total)
T0EE4 005:897 JLINK_ReadReg(R15)  returns 0x08004430 (0002ms, 2564ms total)
T0EE4 005:900 JLINK_ReadReg(XPSR)  returns 0x61000000 (0001ms, 2567ms total)
T0EE4 005:901 JLINK_ClrBPEx(BPHandle = 0x00000003)  returns 0x00 (0001ms, 2568ms total)
T0EE4 005:902 JLINK_ReadMemU32(0xE000ED30, 0x0001 Items, ...) -- CPU_ReadMem(4 bytes @ 0xE000ED30) -- Data:  03 00 00 00  returns 0x01 (0004ms, 2569ms total)
T0EE4 005:906 JLINK_ReadMemU32(0xE0001028, 0x0001 Items, ...) -- CPU_ReadMem(4 bytes @ 0xE0001028) -- Data:  00 00 00 00  returns 0x01 (0003ms, 2573ms total)
T0EE4 005:909 JLINK_ReadMemU32(0xE0001038, 0x0001 Items, ...) -- CPU_ReadMem(4 bytes @ 0xE0001038) -- Data:  00 02 00 00  returns 0x01 (0003ms, 2576ms total)
T0EE4 005:912 JLINK_ReadMemU32(0xE0001048, 0x0001 Items, ...) -- CPU_ReadMem(4 bytes @ 0xE0001048) -- Data:  00 00 00 00  returns 0x01 (0003ms, 2579ms total)
T0EE4 005:915 JLINK_ReadMemU32(0xE0001058, 0x0001 Items, ...) -- CPU_ReadMem(4 bytes @ 0xE0001058) -- Data:  00 00 00 00  returns 0x01 (0006ms, 2582ms total)
T0EE4 005:921 JLINK_ReadReg(R0)  returns 0x0000FFDC (0002ms, 2588ms total)
T0EE4 005:923 JLINK_ReadReg(R1)  returns 0x200081F8 (0001ms, 2590ms total)
T0EE4 005:924 JLINK_ReadReg(R2)  returns 0x00000000 (0001ms, 2591ms total)
T0EE4 005:926 JLINK_ReadReg(R3)  returns 0x08001A7D (0001ms, 2593ms total)
T0EE4 005:927 JLINK_ReadReg(R4)  returns 0x00000032 (0001ms, 2594ms total)
T0EE4 005:928 JLINK_ReadReg(R5)  returns 0x0000FFDC (0001ms, 2595ms total)
T0EE4 005:929 JLINK_ReadReg(R6)  returns 0x00000000 (0001ms, 2596ms total)
T0EE4 005:930 JLINK_ReadReg(R7)  returns 0x00000000 (0001ms, 2597ms total)
T0EE4 005:931 JLINK_ReadReg(R8)  returns 0x00000000 (0001ms, 2598ms total)
T0EE4 005:932 JLINK_ReadReg(R9)  returns 0x00000000 (0001ms, 2599ms total)
T0EE4 005:934 JLINK_ReadReg(R10)  returns 0x00000000 (0000ms, 2601ms total)
T0EE4 005:935 JLINK_ReadReg(R11)  returns 0x00000000 (0000ms, 2602ms total)
T0EE4 005:935 JLINK_ReadReg(R12)  returns 0x00000000 (0001ms, 2602ms total)
T0EE4 005:936 JLINK_ReadReg(R13)  returns 0x200081F8 (0001ms, 2603ms total)
T0EE4 005:937 JLINK_ReadReg(R14)  returns 0x080004D1 (0001ms, 2604ms total)
T0EE4 005:938 JLINK_ReadReg(R15)  returns 0x08004430 (0001ms, 2605ms total)
T0EE4 005:939 JLINK_ReadReg(XPSR)  returns 0x61000000 (0001ms, 2606ms total)
T0EE4 005:940 JLINK_ReadReg(MSP)  returns 0x200081F8 (0001ms, 2607ms total)
T0EE4 005:941 JLINK_ReadReg(PSP)  returns 0x00000000 (0001ms, 2608ms total)
T0EE4 005:943 JLINK_ReadReg(CFBP)  returns 0x00000000 (0000ms, 2610ms total)
T0EE4 005:944 JLINK_ReadReg(FPSCR)  returns 0x00000000 (0012ms, 2611ms total)
T0EE4 005:956 JLINK_ReadReg(FPS0)  returns 0x00000000 (0001ms, 2623ms total)
T0EE4 005:958 JLINK_ReadReg(FPS1)  returns 0x00000000 (0001ms, 2625ms total)
T0EE4 005:959 JLINK_ReadReg(FPS2)  returns 0x00000000 (0001ms, 2626ms total)
T0EE4 005:960 JLINK_ReadReg(FPS3)  returns 0x00000000 (0002ms, 2627ms total)
T0EE4 005:962 JLINK_ReadReg(FPS4)  returns 0x00000000 (0002ms, 2629ms total)
T0EE4 005:964 JLINK_ReadReg(FPS5)  returns 0x00000000 (0002ms, 2631ms total)
T0EE4 005:966 JLINK_ReadReg(FPS6)  returns 0x00000000 (0002ms, 2633ms total)
T0EE4 005:969 JLINK_ReadReg(FPS7)  returns 0x00000000 (0001ms, 2636ms total)
T0EE4 005:971 JLINK_ReadReg(FPS8)  returns 0x00000000 (0001ms, 2638ms total)
T0EE4 005:973 JLINK_ReadReg(FPS9)  returns 0x00000000 (0001ms, 2640ms total)
T0EE4 005:974 JLINK_ReadReg(FPS10)  returns 0x00000000 (0001ms, 2641ms total)
T0EE4 005:975 JLINK_ReadReg(FPS11)  returns 0x00000000 (0001ms, 2642ms total)
T0EE4 005:976 JLINK_ReadReg(FPS12)  returns 0x00000000 (0001ms, 2643ms total)
T0EE4 005:977 JLINK_ReadReg(FPS13)  returns 0x00000000 (0001ms, 2644ms total)
T0EE4 005:978 JLINK_ReadReg(FPS14)  returns 0x00000000 (0001ms, 2645ms total)
T0EE4 005:979 JLINK_ReadReg(FPS15)  returns 0x00000000 (0001ms, 2646ms total)
T0EE4 005:980 JLINK_ReadReg(FPS16)  returns 0x00000000 (0001ms, 2647ms total)
T0EE4 005:981 JLINK_ReadReg(FPS17)  returns 0x00000000 (0001ms, 2648ms total)
T0EE4 005:982 JLINK_ReadReg(FPS18)  returns 0x00000000 (0001ms, 2649ms total)
T0EE4 005:983 JLINK_ReadReg(FPS19)  returns 0x00000000 (0001ms, 2650ms total)
T0EE4 005:984 JLINK_ReadReg(FPS20)  returns 0x00000000 (0001ms, 2651ms total)
T0EE4 005:985 JLINK_ReadReg(FPS31)  returns 0x00000000 (0001ms, 2652ms total)
T0EE4 005:986 JLINK_ReadReg(FPS7)  returns 0x00000000 (0001ms, 2653ms total)
T0EE4 005:987 JLINK_ReadReg(FPS8)  returns 0x00000000 (0004ms, 2654ms total)
T0EE4 005:991 JLINK_ReadReg(FPS9)  returns 0x00000000 (0001ms, 2658ms total)
T0EE4 005:992 JLINK_ReadReg(FPS10)  returns 0x00000000 (0001ms, 2659ms total)
T0EE4 005:993 JLINK_ReadReg(FPS11)  returns 0x00000000 (0001ms, 2660ms total)
T0EE4 005:994 JLINK_ReadReg(FPS12)  returns 0x00000000 (0001ms, 2661ms total)
T0EE4 005:995 JLINK_ReadReg(FPS13)  returns 0x00000000 (0001ms, 2662ms total)
T0EE4 005:996 JLINK_ReadReg(FPS14)  returns 0x00000000 (0001ms, 2663ms total)
T0EE4 005:997 JLINK_ReadReg(FPS15)  returns 0x00000000 (0001ms, 2664ms total)
T0EE4 005:998 JLINK_ReadReg(FPS16)  returns 0x00000000 (0001ms, 2665ms total)
T0850 005:999 JLINK_WriteReg(R0, 0x0000FFDC)  returns 0x00 (0001ms, 2666ms total)
T0850 006:000 JLINK_WriteReg(R1, 0x200081F8)  returns 0x00 (0001ms, 2667ms total)
T0850 006:002 JLINK_WriteReg(R2, 0x00000000)  returns 0x00 (0001ms, 2669ms total)
T0850 006:003 JLINK_WriteReg(R3, 0x08001A7D)  returns 0x00 (0001ms, 2670ms total)
T0850 006:004 JLINK_WriteReg(R4, 0x00000032)  returns 0x00 (0001ms, 2671ms total)
T0850 006:005 JLINK_WriteReg(R5, 0x0000FFDC)  returns 0x00 (0001ms, 2672ms total)
T0850 006:006 JLINK_WriteReg(R6, 0x00000000)  returns 0x00 (0001ms, 2673ms total)
T0850 006:007 JLINK_WriteReg(R7, 0x00000000)  returns 0x00 (0001ms, 2674ms total)
T0850 006:008 JLINK_WriteReg(R8, 0x00000000)  returns 0x00 (0001ms, 2675ms total)
T0850 006:009 JLINK_WriteReg(R9, 0x00000000)  returns 0x00 (0001ms, 2676ms total)
T0850 006:010 JLINK_WriteReg(R10, 0x00000000)  returns 0x00 (0001ms, 2677ms total)
T0850 006:011 JLINK_WriteReg(R11, 0x00000000)  returns 0x00 (0001ms, 2678ms total)
T0850 006:013 JLINK_WriteReg(R12, 0x00000000)  returns 0x00 (0001ms, 2680ms total)
T0850 006:014 JLINK_WriteReg(R13, 0x200081F8)  returns 0x00 (0001ms, 2681ms total)
T0850 006:015 JLINK_WriteReg(R14, 0x080004D1)  returns 0x00 (0001ms, 2682ms total)
T0850 006:016 JLINK_WriteReg(R15, 0x08004430)  returns 0x00 (0002ms, 2683ms total)
T0850 006:018 JLINK_WriteReg(XPSR, 0x61000000)  returns 0x00 (0001ms, 2685ms total)
T0850 006:019 JLINK_WriteReg(MSP, 0x200081F8)  returns 0x00 (0001ms, 2686ms total)
T0850 006:020 JLINK_WriteReg(PSP, 0x00000000)  returns 0x00 (0001ms, 2687ms total)
T0850 006:021 JLINK_WriteReg(CFBP, 0x00000000)  returns 0x00 (0001ms, 2688ms total)
T0850 006:022 JLINK_WriteReg(FPSCR, 0x00000000)  returns 0x00 (0001ms, 2689ms total)
T0850 006:023 JLINK_WriteReg(FPS0, 0x00000000)  returns 0x00 (0001ms, 2690ms total)
T0850 006:024 JLINK_WriteReg(FPS1, 0x00000000)  returns 0x00 (0001ms, 2691ms total)
T0850 006:025 JLINK_WriteReg(FPS2, 0x00000000)  returns 0x00 (0001ms, 2692ms total)
T0850 006:026 JLINK_WriteReg(FPS3, 0x00000000)  returns 0x00 (0001ms, 2693ms total)
T0850 006:027 JLINK_WriteReg(FPS4, 0x00000000)  returns 0x00 (0001ms, 2694ms total)
T0850 006:028 JLINK_WriteReg(FPS5, 0x00000000)  returns 0x00 (0001ms, 2695ms total)
T0850 006:030 JLINK_WriteReg(FPS6, 0x00000000)  returns 0x00 (0000ms, 2697ms total)
T0850 006:031 JLINK_WriteReg(FPS7, 0x00000000)  returns 0x00 (0000ms, 2698ms total)
T0850 006:032 JLINK_WriteReg(FPS8, 0x00000000)  returns 0x00 (0000ms, 2699ms total)
T0850 006:033 JLINK_WriteReg(FPS9, 0x00000000)  returns 0x00 (0001ms, 2700ms total)
T0850 006:034 JLINK_WriteReg(FPS10, 0x00000000)  returns 0x00 (0001ms, 2701ms total)
T0850 006:035 JLINK_WriteReg(FPS11, 0x00000000)  returns 0x00 (0000ms, 2702ms total)
T0850 006:036 JLINK_WriteReg(FPS12, 0x00000000)  returns 0x00 (0001ms, 2703ms total)
T0850 006:037 JLINK_WriteReg(FPS13, 0x00000000)  returns 0x00 (0001ms, 2704ms total)
T0850 006:038 JLINK_WriteReg(FPS14, 0x00000000)  returns 0x00 (0001ms, 2705ms total)
T0850 006:039 JLINK_WriteReg(FPS15, 0x00000000)  returns 0x00 (0001ms, 2706ms total)
T0850 006:040 JLINK_WriteReg(FPS16, 0x00000000)  returns 0x00 (0001ms, 2707ms total)
T0850 006:041 JLINK_WriteReg(FPS17, 0x00000000)  returns 0x00 (0001ms, 2708ms total)
T0850 006:042 JLINK_WriteReg(FPS18, 0x00000000)  returns 0x00 (0001ms, 2709ms total)
T0850 006:043 JLINK_WriteReg(FPS19, 0x00000000)  returns 0x00 (0001ms, 2710ms total)
T0850 006:044 JLINK_WriteReg(FPS20, 0x00000000)  returns 0x00 (0001ms, 2711ms total)
T0850 006:045 JLINK_WriteReg(FPS31, 0x00000000)  returns 0x00 (0001ms, 2712ms total)
T0850 006:047 JLINK_WriteReg(FPS7, 0x00000000)  returns 0x00 (0000ms, 2714ms total)
T0850 006:049 JLINK_WriteReg(FPS8, 0x00000000)  returns 0x00 (0000ms, 2716ms total)
T0850 006:050 JLINK_WriteReg(FPS9, 0x00000000)  returns 0x00 (0001ms, 2717ms total)
T0850 006:051 JLINK_WriteReg(FPS10, 0x00000000)  returns 0x00 (0001ms, 2718ms total)
T0850 006:052 JLINK_WriteReg(FPS11, 0x00000000)  returns 0x00 (0001ms, 2719ms total)
T0850 006:053 JLINK_WriteReg(FPS12, 0x00000000)  returns 0x00 (0001ms, 2720ms total)
T0850 006:054 JLINK_WriteReg(FPS13, 0x00000000)  returns 0x00 (0001ms, 2721ms total)
T0850 006:055 JLINK_WriteReg(FPS14, 0x00000000)  returns 0x00 (0001ms, 2722ms total)
T0850 006:056 JLINK_WriteReg(FPS15, 0x00000000)  returns 0x00 (0001ms, 2723ms total)
